name,type,start_time,duration
"Bitbang SPI","enable",3.256517,0.000000083
"Bitbang SPI","disable",3.256523417,0.000000083
"Bitbang SPI","enable",3.256526333,0.000000083
"Bitbang SPI","disable",3.2565295,0.000000083
"Bitbang SPI","enable",3.256532333,0.000000083
"Bitbang SPI","disable",3.2565355,0.000000083
"Bitbang SPI","enable",3.256538417,0.000000083
"Bitbang SPI","disable",3.256541583,0.000000083
"Bitbang SPI","enable",3.256544417,0.000000083
"Bitbang SPI","disable",3.256547583,0.000000083
"Bitbang SPI","enable",3.2565505,0.000000083
"Bitbang SPI","disable",3.256553667,0.000000083
"Bitbang SPI","enable",3.2565565,0.000000083
"Bitbang SPI","disable",3.25655975,0.000000083
"Bitbang SPI","enable",3.256562583,0.000000083
"Bitbang SPI","disable",3.25656575,0.000000083
"Bitbang SPI","enable",3.256568667,0.000000083
"Bitbang SPI","disable",3.256913333,0.000000083
"Bitbang SPI","enable",3.25691625,0.000000083
"Bitbang SPI","disable",3.256919417,0.000000083
"Bitbang SPI","enable",3.25692225,0.000000083
"Bitbang SPI","disable",3.2569255,0.000000083
"Bitbang SPI","enable",3.256928333,0.000000083
"Bitbang SPI","disable",3.2569315,0.000000083
"Bitbang SPI","enable",3.256934417,0.000000083
"Bitbang SPI","disable",3.256937583,0.000000083
"Bitbang SPI","enable",3.256940417,0.000000083
"Bitbang SPI","disable",3.256943667,0.000000083
"Bitbang SPI","enable",3.2569465,0.000000083
"Bitbang SPI","disable",3.256949667,0.000000083
"Bitbang SPI","enable",3.2569525,0.000000083
"Bitbang SPI","disable",3.256955667,0.000000083
"Bitbang SPI","enable",3.256958583,0.000000083
"Bitbang SPI","disable",3.25696225,0.000000083
"Bitbang SPI","enable",3.256965083,0.000000083
"Bitbang SPI","disable",3.25696825,0.000000083
"Bitbang SPI","enable",3.256971167,0.000000083
"Bitbang SPI","disable",3.256974333,0.000000083
"Bitbang SPI","enable",3.256977167,0.000000083
"Bitbang SPI","disable",3.256980333,0.000000083
"Bitbang SPI","enable",3.256983167,0.000000083
"Bitbang SPI","disable",3.256986333,0.000000083
"Bitbang SPI","enable",3.25698925,0.000000083
"Bitbang SPI","disable",3.256992417,0.000000083
"Bitbang SPI","enable",3.25699525,0.000000083
"Bitbang SPI","disable",3.2569985,0.000000083
"Bitbang SPI","enable",3.257001333,0.000000083
"Bitbang SPI","disable",3.2570045,0.000000083
"Bitbang SPI","enable",3.257007417,0.000000083
"Bitbang SPI","disable",3.257011,0.000000083
"Bitbang SPI","enable",3.257013917,0.000000083
"Bitbang SPI","disable",3.257017083,0.000000083
"Bitbang SPI","enable",3.257019917,0.000000083
"Bitbang SPI","disable",3.257023167,0.000000083
"Bitbang SPI","enable",3.257026,0.000000083
"Bitbang SPI","disable",3.257029167,0.000000083
"Bitbang SPI","enable",3.257032083,0.000000083
"Bitbang SPI","disable",3.25703525,0.000000083
"Bitbang SPI","enable",3.257038083,0.000000083
"Bitbang SPI","disable",3.25704125,0.000000083
"Bitbang SPI","enable",3.257044167,0.000000083
"Bitbang SPI","disable",3.257047333,0.000000083
"Bitbang SPI","enable",3.257050167,0.000000083
"Bitbang SPI","disable",3.257053333,0.000000083
"Bitbang SPI","enable",3.25705625,0.000000083
"Bitbang SPI","disable",3.25706275,0.000000083
"Bitbang SPI","enable",3.257065667,0.000000083
"Bitbang SPI","disable",3.257068833,0.000000083
"Bitbang SPI","enable",3.257071667,0.000000083
"Bitbang SPI","disable",3.257074833,0.000000083
"Bitbang SPI","enable",3.25707775,0.000000083
"Bitbang SPI","disable",3.257080917,0.000000083
"Bitbang SPI","enable",3.25708375,0.000000083
"Bitbang SPI","disable",3.257087,0.000000083
"Bitbang SPI","enable",3.257089833,0.000000083
"Bitbang SPI","disable",3.257093,0.000000083
"Bitbang SPI","enable",3.257095917,0.000000083
"Bitbang SPI","disable",3.257099083,0.000000083
"Bitbang SPI","enable",3.257101917,0.000000083
"Bitbang SPI","disable",3.257105083,0.000000083
"Bitbang SPI","enable",3.257108,0.000000083
"Bitbang SPI","disable",3.257111583,0.000000083
"Bitbang SPI","enable",3.2571145,0.000000083
"Bitbang SPI","disable",3.257117667,0.000000083
"Bitbang SPI","enable",3.2571205,0.000000083
"Bitbang SPI","disable",3.257123667,0.000000083
"Bitbang SPI","enable",3.257126583,0.000000083
"Bitbang SPI","disable",3.25712975,0.000000083
"Bitbang SPI","enable",3.257132583,0.000000083
"Bitbang SPI","disable",3.25713575,0.000000083
"Bitbang SPI","enable",3.257138583,0.000000083
"Bitbang SPI","disable",3.257141833,0.000000083
"Bitbang SPI","enable",3.257144667,0.000000083
"Bitbang SPI","disable",3.257147833,0.000000083
"Bitbang SPI","enable",3.25715075,0.000000083
"Bitbang SPI","disable",3.257153917,0.000000083
"Bitbang SPI","enable",3.25715675,0.000000083
"Bitbang SPI","disable",3.257160333,0.000000083
"Bitbang SPI","enable",3.25716325,0.000000083
"Bitbang SPI","disable",3.257166417,0.000000083
"Bitbang SPI","enable",3.25716925,0.000000083
"Bitbang SPI","disable",3.2571725,0.000000083
"Bitbang SPI","enable",3.257175333,0.000000083
"Bitbang SPI","disable",3.2571785,0.000000083
"Bitbang SPI","enable",3.257181333,0.000000083
"Bitbang SPI","disable",3.2571845,0.000000083
"Bitbang SPI","enable",3.257187417,0.000000083
"Bitbang SPI","disable",3.257190583,0.000000083
"Bitbang SPI","enable",3.2571935,0.000000083
"Bitbang SPI","disable",3.257196667,0.000000083
"Bitbang SPI","enable",3.2571995,0.000000083
"Bitbang SPI","disable",3.257202667,0.000000083
"Bitbang SPI","enable",3.257205583,0.000000083
"Bitbang SPI","disable",3.257212083,0.000000083
"Bitbang SPI","enable",3.257214917,0.000000083
"Bitbang SPI","disable",3.257218167,0.000000083
"Bitbang SPI","enable",3.257221,0.000000083
"Bitbang SPI","disable",3.257224167,0.000000083
"Bitbang SPI","enable",3.257227083,0.000000083
"Bitbang SPI","disable",3.25723025,0.000000083
"Bitbang SPI","enable",3.257233083,0.000000083
"Bitbang SPI","disable",3.25723625,0.000000083
"Bitbang SPI","enable",3.257239167,0.000000083
"Bitbang SPI","disable",3.257242333,0.000000083
"Bitbang SPI","enable",3.257245167,0.000000083
"Bitbang SPI","disable",3.257248333,0.000000083
"Bitbang SPI","enable",3.25725125,0.000000083
"Bitbang SPI","disable",3.257254417,0.000000083
"Bitbang SPI","enable",3.25725725,0.000000083
"Bitbang SPI","disable",3.257260917,0.000000083
"Bitbang SPI","enable",3.25726375,0.000000083
"Bitbang SPI","disable",3.257267,0.000000083
"Bitbang SPI","enable",3.257269833,0.000000083
"Bitbang SPI","disable",3.257273,0.000000083
"Bitbang SPI","enable",3.257275833,0.000000083
"Bitbang SPI","disable",3.257279083,0.000000083
"Bitbang SPI","enable",3.257281917,0.000000083
"Bitbang SPI","disable",3.257285083,0.000000083
"Bitbang SPI","enable",3.257287917,0.000000083
"Bitbang SPI","disable",3.257291083,0.000000083
"Bitbang SPI","enable",3.257294,0.000000083
"Bitbang SPI","disable",3.257297167,0.000000083
"Bitbang SPI","enable",3.2573,0.000000083
"Bitbang SPI","disable",3.257303167,0.000000083
"Bitbang SPI","enable",3.257306083,0.000000083
"Bitbang SPI","disable",3.257309667,0.000000083
"Bitbang SPI","enable",3.257312583,0.000000083
"Bitbang SPI","disable",3.25731575,0.000000083
"Bitbang SPI","enable",3.257318667,0.000000083
"Bitbang SPI","disable",3.257321833,0.000000083
"Bitbang SPI","enable",3.257324667,0.000000083
"Bitbang SPI","disable",3.257327833,0.000000083
"Bitbang SPI","enable",3.25733075,0.000000083
"Bitbang SPI","disable",3.257333917,0.000000083
"Bitbang SPI","enable",3.25733675,0.000000083
"Bitbang SPI","disable",3.25734,0.000000083
"Bitbang SPI","enable",3.257342833,0.000000083
"Bitbang SPI","disable",3.257346,0.000000083
"Bitbang SPI","enable",3.257348917,0.000000083
"Bitbang SPI","disable",3.257352083,0.000000083
"Bitbang SPI","enable",3.257354917,0.000000083
"Bitbang SPI","disable",3.257361583,0.000000083
"Bitbang SPI","enable",3.2573645,0.000000083
"Bitbang SPI","disable",3.257367667,0.000000083
"Bitbang SPI","enable",3.2573705,0.000000083
"Bitbang SPI","disable",3.257373667,0.000000083
"Bitbang SPI","enable",3.257376583,0.000000083
"Bitbang SPI","disable",3.25737975,0.000000083
"Bitbang SPI","enable",3.257382583,0.000000083
"Bitbang SPI","disable",3.257385833,0.000000083
"Bitbang SPI","enable",3.257388667,0.000000083
"Bitbang SPI","disable",3.257391833,0.000000083
"Bitbang SPI","enable",3.25739475,0.000000083
"Bitbang SPI","disable",3.257397917,0.000000083
"Bitbang SPI","enable",3.25740075,0.000000083
"Bitbang SPI","disable",3.257403917,0.000000083
"Bitbang SPI","enable",3.25740675,0.000000083
"Bitbang SPI","disable",3.257410417,0.000000083
"Bitbang SPI","enable",3.25741325,0.000000083
"Bitbang SPI","disable",3.2574165,0.000000083
"Bitbang SPI","enable",3.257419333,0.000000083
"Bitbang SPI","disable",3.2574225,0.000000083
"Bitbang SPI","enable",3.257425417,0.000000083
"Bitbang SPI","disable",3.257428583,0.000000083
"Bitbang SPI","enable",3.257431417,0.000000083
"Bitbang SPI","disable",3.257434583,0.000000083
"Bitbang SPI","enable",3.257437417,0.000000083
"Bitbang SPI","disable",3.257440583,0.000000083
"Bitbang SPI","enable",3.2574435,0.000000083
"Bitbang SPI","disable",3.257446667,0.000000083
"Bitbang SPI","enable",3.2574495,0.000000083
"Bitbang SPI","disable",3.257452667,0.000000083
"Bitbang SPI","enable",3.2574555,0.000000083
"Bitbang SPI","disable",3.257459167,0.000000083
"Bitbang SPI","enable",3.257462,0.000000083
"Bitbang SPI","disable",3.25746525,0.000000083
"Bitbang SPI","enable",3.257468083,0.000000083
"Bitbang SPI","disable",3.25747125,0.000000083
"Bitbang SPI","enable",3.257474167,0.000000083
"Bitbang SPI","disable",3.257477333,0.000000083
"Bitbang SPI","enable",3.257480167,0.000000083
"Bitbang SPI","disable",3.257483417,0.000000083
"Bitbang SPI","enable",3.25748625,0.000000083
"Bitbang SPI","disable",3.257489417,0.000000083
"Bitbang SPI","enable",3.257492333,0.000000083
"Bitbang SPI","disable",3.2574955,0.000000083
"Bitbang SPI","enable",3.257498333,0.000000083
"Bitbang SPI","disable",3.2575015,0.000000083
"Bitbang SPI","enable",3.257504417,0.000000083
"Bitbang SPI","disable",3.257511,0.000000083
"Bitbang SPI","enable",3.257513917,0.000000083
"Bitbang SPI","disable",3.257517083,0.000000083
"Bitbang SPI","enable",3.257519917,0.000000083
"Bitbang SPI","disable",3.257523083,0.000000083
"Bitbang SPI","enable",3.257526,0.000000083
"Bitbang SPI","disable",3.257529167,0.000000083
"Bitbang SPI","enable",3.257532,0.000000083
"Bitbang SPI","disable",3.25753525,0.000000083
"Bitbang SPI","enable",3.257538083,0.000000083
"Bitbang SPI","disable",3.25754125,0.000000083
"Bitbang SPI","enable",3.257544167,0.000000083
"Bitbang SPI","disable",3.257547333,0.000000083
"Bitbang SPI","enable",3.257550167,0.000000083
"Bitbang SPI","disable",3.257553333,0.000000083
"Bitbang SPI","enable",3.25755625,0.000000083
"Bitbang SPI","disable",3.257559833,0.000000083
"Bitbang SPI","enable",3.25756275,0.000000083
"Bitbang SPI","disable",3.257565917,0.000000083
"Bitbang SPI","enable",3.25756875,0.000000083
"Bitbang SPI","disable",3.257572,0.000000083
"Bitbang SPI","enable",3.257574833,0.000000083
"Bitbang SPI","disable",3.257578,0.000000083
"Bitbang SPI","enable",3.257580917,0.000000083
"Bitbang SPI","disable",3.257584083,0.000000083
"Bitbang SPI","enable",3.257586917,0.000000083
"Bitbang SPI","disable",3.257590083,0.000000083
"Bitbang SPI","enable",3.257592917,0.000000083
"Bitbang SPI","disable",3.257596083,0.000000083
"Bitbang SPI","enable",3.257598917,0.000000083
"Bitbang SPI","disable",3.257602083,0.000000083
"Bitbang SPI","enable",3.257605,0.000000083
"Bitbang SPI","disable",3.257608583,0.000000083
"Bitbang SPI","enable",3.2576115,0.000000083
"Bitbang SPI","disable",3.257614667,0.000000083
"Bitbang SPI","enable",3.2576175,0.000000083
"Bitbang SPI","disable",3.257620667,0.000000083
"Bitbang SPI","enable",3.257623583,0.000000083
"Bitbang SPI","disable",3.25762675,0.000000083
"Bitbang SPI","enable",3.257629583,0.000000083
"Bitbang SPI","disable",3.25763275,0.000000083
"Bitbang SPI","enable",3.257635583,0.000000083
"Bitbang SPI","disable",3.25763875,0.000000083
"Bitbang SPI","enable",3.257641583,0.000000083
"Bitbang SPI","disable",3.25764475,0.000000083
"Bitbang SPI","enable",3.257647667,0.000000083
"Bitbang SPI","disable",3.257650833,0.000000083
"Bitbang SPI","enable",3.257653667,0.000000083
"Bitbang SPI","disable",3.257660417,0.000000083
"Bitbang SPI","enable",3.25766325,0.000000083
"Bitbang SPI","disable",3.257666417,0.000000083
"Bitbang SPI","enable",3.257669333,0.000000083
"Bitbang SPI","disable",3.2576725,0.000000083
"Bitbang SPI","enable",3.257675333,0.000000083
"Bitbang SPI","disable",3.257678583,0.000000083
"Bitbang SPI","enable",3.257681417,0.000000083
"Bitbang SPI","disable",3.257684583,0.000000083
"Bitbang SPI","enable",3.2576875,0.000000083
"Bitbang SPI","disable",3.257690667,0.000000083
"Bitbang SPI","enable",3.2576935,0.000000083
"Bitbang SPI","disable",3.257696667,0.000000083
"Bitbang SPI","enable",3.257699583,0.000000083
"Bitbang SPI","disable",3.25770275,0.000000083
"Bitbang SPI","enable",3.257705583,0.000000083
"Bitbang SPI","disable",3.25770925,0.000000083
"Bitbang SPI","enable",3.257712083,0.000000083
"Bitbang SPI","disable",3.25771525,0.000000083
"Bitbang SPI","enable",3.257718167,0.000000083
"Bitbang SPI","disable",3.257721333,0.000000083
"Bitbang SPI","enable",3.257724167,0.000000083
"Bitbang SPI","disable",3.257727417,0.000000083
"Bitbang SPI","enable",3.25773025,0.000000083
"Bitbang SPI","disable",3.257733417,0.000000083
"Bitbang SPI","enable",3.25773625,0.000000083
"Bitbang SPI","disable",3.257739417,0.000000083
"Bitbang SPI","enable",3.25774225,0.000000083
"Bitbang SPI","disable",3.257745417,0.000000083
"Bitbang SPI","enable",3.257748333,0.000000083
"Bitbang SPI","disable",3.2577515,0.000000083
"Bitbang SPI","enable",3.257754333,0.000000083
"Bitbang SPI","disable",3.257758,0.000000083
"Bitbang SPI","enable",3.257760833,0.000000083
"Bitbang SPI","disable",3.257764083,0.000000083
"Bitbang SPI","enable",3.257766917,0.000000083
"Bitbang SPI","disable",3.257770083,0.000000083
"Bitbang SPI","enable",3.257773,0.000000083
"Bitbang SPI","disable",3.257776167,0.000000083
"Bitbang SPI","enable",3.257779,0.000000083
"Bitbang SPI","disable",3.25778225,0.000000083
"Bitbang SPI","enable",3.257785083,0.000000083
"Bitbang SPI","disable",3.25778825,0.000000083
"Bitbang SPI","enable",3.257791167,0.000000083
"Bitbang SPI","disable",3.257794333,0.000000083
"Bitbang SPI","enable",3.257797167,0.000000083
"Bitbang SPI","disable",3.257800333,0.000000083
"Bitbang SPI","enable",3.25780325,0.000000083
"Bitbang SPI","disable",3.257809917,0.000000083
"Bitbang SPI","enable",3.25781275,0.000000083
"Bitbang SPI","disable",3.257816,0.000000083
"Bitbang SPI","enable",3.257818833,0.000000083
"Bitbang SPI","disable",3.257822,0.000000083
"Bitbang SPI","enable",3.257824917,0.000000083
"Bitbang SPI","disable",3.257828083,0.000000083
"Bitbang SPI","enable",3.257830917,0.000000083
"Bitbang SPI","disable",3.257834167,0.000000083
"Bitbang SPI","enable",3.257837,0.000000083
"Bitbang SPI","disable",3.257840167,0.000000083
"Bitbang SPI","enable",3.257843083,0.000000083
"Bitbang SPI","disable",3.25784625,0.000000083
"Bitbang SPI","enable",3.257849083,0.000000083
"Bitbang SPI","disable",3.25785225,0.000000083
"Bitbang SPI","enable",3.257855083,0.000000083
"Bitbang SPI","disable",3.25785875,0.000000083
"Bitbang SPI","enable",3.257861583,0.000000083
"Bitbang SPI","disable",3.257864833,0.000000083
"Bitbang SPI","enable",3.257867667,0.000000083
"Bitbang SPI","disable",3.257870833,0.000000083
"Bitbang SPI","enable",3.25787375,0.000000083
"Bitbang SPI","disable",3.257876917,0.000000083
"Bitbang SPI","enable",3.25787975,0.000000083
"Bitbang SPI","disable",3.257882917,0.000000083
"Bitbang SPI","enable",3.25788575,0.000000083
"Bitbang SPI","disable",3.257888917,0.000000083
"Bitbang SPI","enable",3.257891833,0.000000083
"Bitbang SPI","disable",3.257895,0.000000083
"Bitbang SPI","enable",3.257897833,0.000000083
"Bitbang SPI","disable",3.257901,0.000000083
"Bitbang SPI","enable",3.257903917,0.000000083
"Bitbang SPI","disable",3.2579075,0.000000083
"Bitbang SPI","enable",3.257910417,0.000000083
"Bitbang SPI","disable",3.257913583,0.000000083
"Bitbang SPI","enable",3.257916417,0.000000083
"Bitbang SPI","disable",3.257919667,0.000000083
"Bitbang SPI","enable",3.2579225,0.000000083
"Bitbang SPI","disable",3.257925667,0.000000083
"Bitbang SPI","enable",3.257928583,0.000000083
"Bitbang SPI","disable",3.25793175,0.000000083
"Bitbang SPI","enable",3.257934583,0.000000083
"Bitbang SPI","disable",3.25793775,0.000000083
"Bitbang SPI","enable",3.257940667,0.000000083
"Bitbang SPI","disable",3.257943833,0.000000083
"Bitbang SPI","enable",3.257946667,0.000000083
"Bitbang SPI","disable",3.257949917,0.000000083
"Bitbang SPI","enable",3.25795275,0.000000083
"Bitbang SPI","disable",3.257959417,0.000000083
"Bitbang SPI","enable",3.257962333,0.000000083
"Bitbang SPI","disable",3.2579655,0.000000083
"Bitbang SPI","enable",3.257968333,0.000000083
"Bitbang SPI","disable",3.257971583,0.000000083
"Bitbang SPI","enable",3.257974417,0.000000083
"Bitbang SPI","disable",3.257977583,0.000000083
"Bitbang SPI","enable",3.2579805,0.000000083
"Bitbang SPI","disable",3.257983667,0.000000083
"Bitbang SPI","enable",3.2579865,0.000000083
"Bitbang SPI","disable",3.25798975,0.000000083
"Bitbang SPI","enable",3.257992583,0.000000083
"Bitbang SPI","disable",3.25799575,0.000000083
"Bitbang SPI","enable",3.257998583,0.000000083
"Bitbang SPI","disable",3.25800175,0.000000083
"Bitbang SPI","enable",3.258004583,0.000000083
"Bitbang SPI","disable",3.25800825,0.000000083
"Bitbang SPI","enable",3.258011167,0.000000083
"Bitbang SPI","disable",3.258014333,0.000000083
"Bitbang SPI","enable",3.258017167,0.000000083
"Bitbang SPI","disable",3.258020333,0.000000083
"Bitbang SPI","enable",3.25802325,0.000000083
"Bitbang SPI","disable",3.258026417,0.000000083
"Bitbang SPI","enable",3.25802925,0.000000083
"Bitbang SPI","disable",3.258032417,0.000000083
"Bitbang SPI","enable",3.258035333,0.000000083
"Bitbang SPI","disable",3.2580385,0.000000083
"Bitbang SPI","enable",3.258041333,0.000000083
"Bitbang SPI","disable",3.2580445,0.000000083
"Bitbang SPI","enable",3.258047333,0.000000083
"Bitbang SPI","disable",3.2580505,0.000000083
"Bitbang SPI","enable",3.258053417,0.000000083
"Bitbang SPI","disable",3.258057083,0.000000083
"Bitbang SPI","enable",3.258059917,0.000000083
"Bitbang SPI","disable",3.258063083,0.000000083
"Bitbang SPI","enable",3.258066,0.000000083
"Bitbang SPI","disable",3.258069167,0.000000083
"Bitbang SPI","enable",3.258072,0.000000083
"Bitbang SPI","disable",3.258075167,0.000000083
"Bitbang SPI","enable",3.258078083,0.000000083
"Bitbang SPI","disable",3.25808125,0.000000083
"Bitbang SPI","enable",3.258084167,0.000000083
"Bitbang SPI","disable",3.258087333,0.000000083
"Bitbang SPI","enable",3.258090167,0.000000083
"Bitbang SPI","disable",3.258093333,0.000000083
"Bitbang SPI","enable",3.25809625,0.000000083
"Bitbang SPI","disable",3.258099417,0.000000083
"Bitbang SPI","enable",3.25810225,0.000000083
"Bitbang SPI","disable",3.258109,0.000000083
"Bitbang SPI","enable",3.258111833,0.000000083
"Bitbang SPI","disable",3.258115,0.000000083
"Bitbang SPI","enable",3.258117917,0.000000083
"Bitbang SPI","disable",3.258121083,0.000000083
"Bitbang SPI","enable",3.258123917,0.000000083
"Bitbang SPI","disable",3.258127167,0.000000083
"Bitbang SPI","enable",3.25813,0.000000083
"Bitbang SPI","disable",3.258133167,0.000000083
"Bitbang SPI","enable",3.258136083,0.000000083
"Bitbang SPI","disable",3.25813925,0.000000083
"Bitbang SPI","enable",3.258142083,0.000000083
"Bitbang SPI","disable",3.25814525,0.000000083
"Bitbang SPI","enable",3.258148083,0.000000083
"Bitbang SPI","disable",3.25815125,0.000000083
"Bitbang SPI","enable",3.258154167,0.000000083
"Bitbang SPI","disable",3.25815775,0.000000083
"Bitbang SPI","enable",3.258160667,0.000000083
"Bitbang SPI","disable",3.258163833,0.000000083
"Bitbang SPI","enable",3.258166667,0.000000083
"Bitbang SPI","disable",3.258169917,0.000000083
"Bitbang SPI","enable",3.25817275,0.000000083
"Bitbang SPI","disable",3.258175917,0.000000083
"Bitbang SPI","enable",3.258178833,0.000000083
"Bitbang SPI","disable",3.258182,0.000000083
